[Version] 2.0
# GHZ Y RI R 1.0
[Number of Ports] 9
[Number of Frequencies] 251
[Network Data]
4.700000000000000 2.5996196538e-7 -1.138346718e-4 -3.832260346e-8 -1.798095162e-3 7.7040704283e-9 0.0038353295119 -4.974398010e-8 -6.537848352e-4
                  3.7866849297e-9 4.6473231381e-5 -3.747664516e-8 -1.759580879e-4 -2.03114434e-10 -2.585528236e-5 -4.84461548e-10 5.4875575151e-6
                  1.1887870452e-9 1.5821424897e-5
                  -3.832255382e-8 -1.798095161e-3 9.5741855963e-8 -7.666126225e-3 -5.592608689e-8 0.0094816060930 2.3185601846e-9 -3.245598298e-5
                  -9.68767919e-10 -7.950023788e-7 3.8980898533e-9 6.6850387516e-5 -2.47282295e-10 -6.366772017e-6 1.561643586e-11 4.1179721287e-6
                  2.573967237e-12 1.0842000033e-6
                  7.7039463178e-9 0.0038353295106 -5.592605984e-8 0.0094816060930 2.5594361893e-7 -0.011783899002 -2.720359142e-8 -1.457896471e-5
                  3.3287225831e-9 -3.153342000e-6 -2.980630505e-8 -3.911855932e-4 -2.08486179e-11 1.9065861048e-5 3.718501450e-12 -1.271199637e-5
                  1.175957756e-10 -1.265522275e-5
                  -4.974395225e-8 -6.537848350e-4 2.3185402798e-9 -3.245598298e-5 -2.720359701e-8 -1.457896471e-5 2.8387614222e-7 1.4443218706e-4
                  -4.054481613e-8 -1.815580030e-3 2.5947631560e-8 0.0040076298097 -4.944467393e-8 -6.501169186e-4 3.9291702930e-9 4.8639632320e-5
                  -3.800600153e-8 -1.816633504e-4
                  3.7866821716e-9 4.6473231364e-5 -9.68765856e-10 -7.950023806e-7 3.3287235218e-9 -3.153341999e-6 -4.054480439e-8 -1.815580030e-3
                  9.5933571728e-8 -7.665034005e-3 -5.742107352e-8 0.0094705146688 2.2128602960e-9 -3.254724375e-5 -9.74166069e-10 -7.071747955e-7
                  3.9183547983e-9 6.6324462370e-5
                  -3.747662881e-8 -1.759580878e-4 3.8980634195e-9 6.6850387537e-5 -2.980631182e-8 -3.911855932e-4 2.5947662397e-8 0.0040076298097
                  -5.742107093e-8 0.0094705146688 2.6961074119e-7 -0.011688752400 -2.683302345e-8 -1.314143981e-5 3.4290033548e-9 -3.652343698e-6
                  -3.022511391e-8 -3.923618404e-4
                  -2.03115401e-10 -2.585528234e-5 -2.47261063e-10 -6.366772023e-6 -2.08525622e-11 1.9065861056e-5 -4.944469377e-8 -6.501169186e-4
                  2.2130746871e-9 -3.254724377e-5 -2.683305377e-8 -1.314143981e-5 2.5461361981e-7 -1.764455588e-4 -3.868062585e-8 -1.797153728e-3
                  9.7227141617e-9 0.0038538553290
                  -4.84460504e-10 5.4875577670e-6 1.582658198e-11 4.1179721536e-6 3.613689529e-12 -1.271199625e-5 3.9291887181e-9 4.8639632296e-5
                  -9.70670246e-10 -7.071753864e-7 3.4289366060e-9 -3.652343876e-6 -3.868574365e-8 -1.797153729e-3 9.5864038104e-8 -7.664086418e-3
                  -5.649559792e-8 0.0094708916000
                  1.1887809781e-9 1.5821424371e-5 2.144184115e-12 1.0841999521e-6 1.178155616e-10 -1.265522300e-5 -3.800603913e-8 -1.816633504e-4
                  3.9111415512e-9 6.6324463591e-5 -3.022496753e-8 -3.923618400e-4 9.7331692737e-9 0.0038538553320 -5.649564058e-8 0.0094708916000
                  2.6003684114e-7 -0.011735911034
4.710000000000000 2.5798209890e-7 -1.035330329e-4 -3.875505347e-8 -1.795578321e-3 7.7954437152e-9 0.0038269823002 -4.960547828e-8 -6.547213619e-4
                  3.5633282798e-9 4.6539824826e-5 -3.682731412e-8 -1.770223280e-4 -1.67751191e-10 -2.581384171e-5 -5.40723087e-10 5.4565133428e-6
                  1.1591992109e-9 1.5837867507e-5
                  -3.875505347e-8 -1.795578321e-3 9.4654858896e-8 -7.646427587e-3 -5.435163299e-8 0.0094592776390 1.9646957044e-9 -3.229300849e-5
                  -6.27240470e-10 -8.308329801e-7 3.6814284719e-9 6.6855825226e-5 -2.95698811e-10 -6.361699373e-6 -3.90538759e-11 4.1094425915e-6
                  5.080769208e-11 1.0822132107e-6
                  7.7954437153e-9 0.0038269823002 -5.435163299e-8 0.0094592776390 2.5459079867e-7 -0.011749662145 -2.681592250e-8 -1.554008500e-5
                  3.2663295914e-9 -3.019208544e-6 -2.958409753e-8 -3.913971785e-4 4.281168581e-11 1.9018276123e-5 -2.69075214e-10 -1.268397759e-5
                  7.954791676e-11 -1.262947518e-5
                  -4.960547828e-8 -6.547213619e-4 1.9646957044e-9 -3.229300849e-5 -2.681592250e-8 -1.554008500e-5 2.8025860088e-7 1.5545218956e-4
                  -4.000208345e-8 -1.813131187e-3 2.5413602119e-8 0.0039996996786 -4.929382790e-8 -6.510431329e-4 3.7196820964e-9 4.8707945438e-5
                  -3.743242256e-8 -1.827404234e-4
                  3.5633282798e-9 4.6539824826e-5 -6.27240470e-10 -8.308329801e-7 3.2663295914e-9 -3.019208544e-6 -4.000208345e-8 -1.813131187e-3
                  9.5685408625e-8 -7.645327723e-3 -5.739477469e-8 0.0094481459979 1.8736244213e-9 -3.238779484e-5 -6.52977552e-10 -7.433764299e-7
                  3.6580437261e-9 6.6332097678e-5
                  -3.682731412e-8 -1.770223280e-4 3.6814284719e-9 6.6855825226e-5 -2.958409753e-8 -3.913971785e-4 2.5413602119e-8 0.0039996996786
                  -5.739477470e-8 0.0094481459979 2.6991003446e-7 -0.011654213670 -2.646541703e-8 -1.409409451e-5 3.4121404239e-9 -3.512997714e-6
                  -3.000435621e-8 -3.925893767e-4
                  -1.67751191e-10 -2.581384171e-5 -2.95698811e-10 -6.361699373e-6 4.281168581e-11 1.9018276123e-5 -4.929382790e-8 -6.510431329e-4
                  1.8736244213e-9 -3.238779484e-5 -2.646541703e-8 -1.409409451e-5 2.5303101593e-7 -1.662905830e-4 -3.821783619e-8 -1.794660204e-3
                  8.9947566948e-9 0.0038455911849
                  -5.40723087e-10 5.4565133428e-6 -3.90538759e-11 4.1094425915e-6 -2.69075214e-10 -1.268397759e-5 3.7196820964e-9 4.8707945438e-5
                  -6.52977552e-10 -7.433764299e-7 3.4121404239e-9 -3.512997714e-6 -3.821783619e-8 -1.794660204e-3 9.5533786593e-8 -7.644385320e-3
                  -5.621312374e-8 0.0094485577708
                  1.1591992109e-9 1.5837867507e-5 5.080769208e-11 1.0822132107e-6 7.954791676e-11 -1.262947518e-5 -3.743242256e-8 -1.827404234e-4
                  3.6580437261e-9 6.6332097678e-5 -3.000435621e-8 -3.925893767e-4 8.9947566946e-9 0.0038455911849 -5.621312374e-8 0.0094485577708
                  2.6034382962e-7 -0.011701604381
4.720000000000001 2.5618533499e-7 -9.325058285e-5 -3.915900458e-8 -1.793076023e-3 7.8836652590e-9 0.0038186715812 -4.948101676e-8 -6.556605057e-4
                  3.3635003086e-9 4.6606992201e-5 -3.623477106e-8 -1.780864584e-4 -1.34540788e-10 -2.577240950e-5 -5.91294266e-10 5.4255131831e-6
                  1.1312993366e-9 1.5854574443e-5
                  -3.915900458e-8 -1.793076023e-3 9.3659755259e-8 -7.626804050e-3 -5.291038629e-8 0.0094370375377 1.6384566843e-9 -3.213013008e-5
                  -3.18221860e-10 -8.666299371e-7 3.4892422357e-9 6.6861813601e-5 -3.40243415e-10 -6.356678137e-6 -8.87090820e-11 4.1009606183e-6
                  9.514258949e-11 1.0802127708e-6
                  7.8836652586e-9 0.0038186715812 -5.291038629e-8 0.0094370375377 2.5335891741e-7 -0.011715547760 -2.646422854e-8 -1.650028177e-5
                  3.2097551885e-9 -2.885115875e-6 -2.938183519e-8 -3.916109132e-4 1.012337518e-10 1.8970971908e-5 -5.21082137e-10 -1.265611219e-5
                  4.434308851e-11 -1.260369811e-5
                  -4.948101676e-8 -6.556605057e-4 1.6384566843e-9 -3.213013008e-5 -2.646422854e-8 -1.650028177e-5 2.7697116909e-7 1.6645395675e-4
                  -3.951010357e-8 -1.810697246e-3 2.4937097168e-8 0.0039918068308 -4.915786245e-8 -6.519719299e-4 3.5327296158e-9 4.8776857188e-5
                  -3.690966895e-8 -1.838174506e-4
                  3.3635003087e-9 4.6606992201e-5 -3.18221860e-10 -8.666299371e-7 3.2097551885e-9 -2.885115875e-6 -3.951010357e-8 -1.810697246e-3
                  9.5458458271e-8 -7.625696644e-3 -5.736624842e-8 0.0094258657086 1.5604751732e-9 -3.222844777e-5 -3.62498344e-10 -7.795441874e-7
                  3.4254849578e-9 6.6340291028e-5
                  -3.623477106e-8 -1.780864584e-4 3.4892422357e-9 6.6861813601e-5 -2.938183519e-8 -3.916109132e-4 2.4937097167e-8 0.0039918068308
                  -5.736624842e-8 0.0094258657086 2.7016310799e-7 -0.011619796943 -2.613162890e-8 -1.504582062e-5 3.3969777325e-9 -3.373694082e-6
                  -2.980377103e-8 -3.928190777e-4
                  -1.34540788e-10 -2.577240950e-5 -3.40243415e-10 -6.356678137e-6 1.012337518e-10 1.8970971908e-5 -4.915786245e-8 -6.519719299e-4
                  1.5604751732e-9 -3.222844777e-5 -2.613162890e-8 -1.504582062e-5 2.5159056461e-7 -1.561548239e-4 -3.780043886e-8 -1.792181345e-3
                  8.3436879311e-9 0.0038373635702
                  -5.91294266e-10 5.4255131831e-6 -8.87090820e-11 4.1009606183e-6 -5.21082137e-10 -1.265611219e-5 3.5327296157e-9 4.8776857188e-5
                  -3.62498344e-10 -7.795441874e-7 3.3969777325e-9 -3.373694082e-6 -3.780043886e-8 -1.792181345e-3 9.5232061948e-8 -7.624759426e-3
                  -5.595099077e-8 0.0094263123542
                  1.1312993366e-9 1.5854574443e-5 9.514258949e-11 1.0802127708e-6 4.434308851e-11 -1.260369811e-5 -3.690966895e-8 -1.838174506e-4
                  3.4254849578e-9 6.6340291028e-5 -2.980377103e-8 -3.928190777e-4 8.3436879310e-9 0.0038373635702 -5.595099077e-8 0.0094263123542
                  2.6060524722e-7 -0.011667419883
4.730000000000000 2.5456339517e-7 -8.298717850e-5 -3.953495644e-8 -1.790588181e-3 7.9688591741e-9 0.0038103971350 -4.937017664e-8 -6.566022631e-4
                  3.1860314101e-9 4.6674733667e-5 -3.569697914e-8 -1.791504920e-4 -1.03420673e-10 -2.573098379e-5 -6.36486177e-10 5.3945564349e-6
                  1.1051483807e-9 1.5871545717e-5
                  -3.953495644e-8 -1.790588181e-3 9.2753363386e-8 -7.607255140e-3 -5.159762920e-8 0.0094148852300 1.3390911224e-9 -3.196734671e-5
                  -4.01095228e-11 -9.023957809e-7 3.3200312366e-9 6.6868355808e-5 -3.81053538e-10 -6.351708451e-6 -1.33584831e-10 4.0925257479e-6
                  1.357170775e-10 1.0781987025e-6
                  7.9688591749e-9 0.0038103971350 -5.159762920e-8 0.0094148852300 2.5224314445e-7 -0.011681555064 -2.614706172e-8 -1.745956777e-5
                  3.1587649919e-9 -2.751058788e-6 -2.919883349e-8 -3.918267953e-4 1.546516811e-10 1.8923947789e-5 -7.52907202e-10 -1.262839899e-5
                  1.192147273e-11 -1.257789123e-5
                  -4.937017664e-8 -6.566022631e-4 1.3390911225e-9 -3.196734671e-5 -2.614706172e-8 -1.745956777e-5 2.7400000749e-7 1.7743763042e-4
                  -3.906692244e-8 -1.808278117e-3 2.4515289122e-8 0.0039839510474 -4.903671730e-8 -6.529033051e-4 3.3671652781e-9 4.8846367763e-5
                  -3.643594359e-8 -1.848944454e-4
                  3.1860314102e-9 4.6674733667e-5 -4.01095228e-11 -9.023957809e-7 3.1587649919e-9 -2.751058788e-6 -3.906692244e-8 -1.808278117e-3
                  9.5252199604e-8 -7.606140285e-3 -5.733634332e-8 0.0094036732318 1.2726649056e-9 -3.206920097e-5 -1.01213318e-10 -8.156806296e-7
                  3.2191003177e-9 6.6349045217e-5
                  -3.569697914e-8 -1.791504920e-4 3.3200312367e-9 6.6868355808e-5 -2.919883349e-8 -3.918267953e-4 2.4515289122e-8 0.0039839510474
                  -5.733634332e-8 0.0094036732318 2.7037478888e-7 -0.011585501435 -2.583031719e-8 -1.599663162e-5 3.3835126751e-9 -3.234427510e-6
                  -2.962269554e-8 -3.930509417e-4
                  -1.03420673e-10 -2.573098379e-5 -3.81053538e-10 -6.351708451e-6 1.546516811e-10 1.8923947789e-5 -4.903671730e-8 -6.529033051e-4
                  1.2726649056e-9 -3.206920097e-5 -2.583031719e-8 -1.599663162e-5 2.5028976728e-7 -1.460381412e-4 -3.742666707e-8 -1.789717060e-3
                  7.7660863173e-9 0.0038291722665
                  -6.36486177e-10 5.3945564349e-6 -1.33584831e-10 4.0925257479e-6 -7.52907202e-10 -1.262839899e-5 3.3671652781e-9 4.8846367763e-5
                  -1.01213318e-10 -8.156806296e-7 3.3835126751e-9 -3.234427510e-6 -3.742666707e-8 -1.789717060e-3 9.4958040513e-8 -7.605208254e-3
                  -5.570931013e-8 0.0094041547831
                  1.1051483807e-9 1.5871545717e-5 1.357170775e-10 1.0781987025e-6 1.192147274e-11 -1.257789123e-5 -3.643594359e-8 -1.848944454e-4
                  3.2191003176e-9 6.6349045217e-5 -2.962269554e-8 -3.930509417e-4 7.7660863165e-9 0.0038291722665 -5.570931013e-8 0.0094041547831
                  2.6082574007e-7 -0.011633356760
4.740000000000000 2.5310873961e-7 -7.274267756e-5 -3.988343407e-8 -1.788114713e-3 8.0510947809e-9 0.0038021587434 -4.927254848e-8 -6.575466307e-4
                  3.0297637255e-9 4.6743049360e-5 -3.521194013e-8 -1.802144418e-4 -7.43425624e-11 -2.568956254e-5 -6.76592634e-10 5.3636424807e-6
                  1.0807843601e-9 1.5888781393e-5
                  -3.988343407e-8 -1.788114713e-3 9.1932571833e-8 -7.587780383e-3 -5.040881386e-8 0.0093928201611 1.0658592124e-9 -3.180465726e-5
                  2.086354589e-10 -9.381329887e-7 3.1723641953e-9 6.6875454913e-5 -4.18255773e-10 -6.346790444e-6 -1.73906985e-10 4.0841375153e-6
                  1.726603563e-10 1.0761710425e-6
                  8.0510947804e-9 0.0038021587434 -5.040881386e-8 0.0093928201611 2.5123897401e-7 -0.011647683281 -2.586303149e-8 -1.841795571e-5
                  3.1131548428e-9 -2.617032179e-6 -2.903442989e-8 -3.920448228e-4 2.032643774e-10 1.8877203170e-5 -9.65156990e-10 -1.260083678e-5
                  -1.77600768e-11 -1.255205429e-5
                  -4.927254848e-8 -6.575466307e-4 1.0658592123e-9 -3.180465726e-5 -2.586303149e-8 -1.841795571e-5 2.7133160006e-7 1.8840335168e-4
                  -3.867050099e-8 -1.805873710e-3 2.4145509839e-8 0.0039761321115 -4.892991040e-8 -6.538372549e-4 3.2218588030e-9 4.8916477316e-5
                  -3.600945086e-8 -1.859714210e-4
                  3.0297637256e-9 4.6743049360e-5 2.086354589e-10 -9.381329887e-7 3.1131548428e-9 -2.617032179e-6 -3.867050099e-8 -1.805873710e-3
                  9.5066063531e-8 -7.586658167e-3 -5.730594380e-8 0.0093815680030 1.0095439301e-9 -3.191005321e-5 1.323441363e-10 -8.517882862e-7
                  3.0373740003e-9 6.6358363008e-5
                  -3.521194013e-8 -1.802144418e-4 3.1723641953e-9 6.6875454913e-5 -2.903442989e-8 -3.920448228e-4 2.4145509839e-8 0.0039761321115
                  -5.730594380e-8 0.0093815680030 2.7054944371e-7 -0.011551326367 -2.556021929e-8 -1.694654014e-5 3.3717164200e-9 -3.095192732e-6
                  -2.946042644e-8 -3.932849671e-4
                  -7.43425624e-11 -2.568956254e-5 -4.18255773e-10 -6.346790444e-6 2.032643774e-10 1.8877203170e-5 -4.892991040e-8 -6.538372549e-4
                  1.0095439300e-9 -3.191005321e-5 -2.556021929e-8 -1.694654014e-5 2.4912278706e-7 -1.359403925e-4 -3.709446721e-8 -1.787267259e-3
                  7.2579915136e-9 0.0038210170567
                  -6.76592634e-10 5.3636424807e-6 -1.73906985e-10 4.0841375153e-6 -9.65156990e-10 -1.260083678e-5 3.2218588030e-9 4.8916477316e-5
                  1.323441363e-10 -8.517882862e-7 3.3717164200e-9 -3.095192732e-6 -3.709446721e-8 -1.787267259e-3 9.4710841924e-8 -7.585731326e-3
                  -5.548797839e-8 0.0093820844943
                  1.0807843601e-9 1.5888781393e-5 1.726603563e-10 1.0761710425e-6 -1.77600768e-11 -1.255205429e-5 -3.600945086e-8 -1.859714210e-4
                  3.0373740003e-9 6.6358363008e-5 -2.946042644e-8 -3.932849671e-4 7.2579915138e-9 0.0038210170567 -5.548797839e-8 0.0093820844943
                  2.6100942113e-7 -0.011599414236
4.750000000000000 2.5181402235e-7 -6.251693874e-5 -4.020499073e-8 -1.785655533e-3 8.1304427009e-9 0.0037939561903 -4.918772727e-8 -6.584936052e-4
                  2.8935737323e-9 4.6811939456e-5 -3.477769059e-8 -1.812783208e-4 -4.72577221e-11 -2.564814374e-5 -7.11898395e-10 5.3327707054e-6
                  1.0582407770e-9 1.5906281547e-5
                  -4.020499073e-8 -1.785655533e-3 9.1194297480e-8 -7.568379311e-3 -4.933944014e-8 0.0093708417807 8.180182787e-10 -3.164206056e-5
                  4.295014634e-10 -9.738439819e-7 3.0448722167e-9 6.6883113884e-5 -4.51975390e-10 -6.341924243e-6 -2.09894314e-10 4.0757954634e-6
                  2.060992998e-10 1.0741298231e-6
                  8.1304427007e-9 0.0037939561903 -4.933944014e-8 0.0093708417807 2.5034199017e-7 -0.011613931640 -2.561077610e-8 -1.937545830e-5
                  3.0727255483e-9 -2.483031033e-6 -2.888797424e-8 -3.922649936e-4 2.472669963e-10 1.8830737464e-5 -1.158432190e-9 -1.257342438e-5
                  -4.47471978e-11 -1.252618701e-5
                  -4.918772727e-8 -6.584936052e-4 8.180182787e-10 -3.164206056e-5 -2.561077610e-8 -1.937545830e-5 2.6895275059e-7 1.9935126088e-4
                  -3.831884725e-8 -1.803483934e-3 2.3825167846e-8 0.0039683498080 -4.883696700e-8 -6.547737761e-4 3.0957139477e-9 4.8987186035e-5
                  -3.562842573e-8 -1.870483904e-4
                  2.8935737323e-9 4.6811939456e-5 4.295014634e-10 -9.738439819e-7 3.0727255483e-9 -2.483031033e-6 -3.831884725e-8 -1.803483934e-3
                  9.4899474768e-8 -7.567249815e-3 -5.727586486e-8 0.0093595494622 7.704567529e-10 -3.175100323e-5 3.395917951e-10 -8.878696304e-7
                  2.8788519234e-9 6.6368247076e-5
                  -3.477769059e-8 -1.812783208e-4 3.0448722167e-9 6.6883113884e-5 -2.888797424e-8 -3.922649936e-4 2.3825167846e-8 0.0039683498080
                  -5.727586486e-8 0.0093595494622 2.7069119913e-7 -0.011517270968 -2.532009550e-8 -1.789555879e-5 3.3615602441e-9 -2.955984571e-6
                  -2.931627556e-8 -3.935211522e-4
                  -4.72577221e-11 -2.564814374e-5 -4.51975390e-10 -6.341924243e-6 2.472669963e-10 1.8830737464e-5 -4.883696700e-8 -6.547737761e-4
                  7.704567529e-10 -3.175100323e-5 -2.532009550e-8 -1.789555879e-5 2.4808392883e-7 -1.258614365e-4 -3.680184694e-8 -1.784831854e-3
                  6.8155832234e-9 0.0038128977253
                  -7.11898395e-10 5.3327707054e-6 -2.09894314e-10 4.0757954634e-6 -1.158432190e-9 -1.257342438e-5 3.0957139477e-9 4.8987186035e-5
                  3.395917951e-10 -8.878696304e-7 3.3615602442e-9 -2.955984571e-6 -3.680184694e-8 -1.784831854e-3 9.4489587635e-8 -7.566328167e-3
                  -5.528685007e-8 0.0093601009289
                  1.0582407770e-9 1.5906281547e-5 2.060992998e-10 1.0741298231e-6 -4.47471978e-11 -1.252618701e-5 -3.562842573e-8 -1.870483904e-4
                  2.8788519234e-9 6.6368247076e-5 -2.931627556e-8 -3.935211522e-4 6.8155832236e-9 0.0038128977253 -5.528685007e-8 0.0093601009289
                  2.6116018162e-7 -0.011565591539
4.760000000000001 2.5067208809e-7 -5.230982177e-5 -4.050020577e-8 -1.783210559e-3 8.2069746459e-9 0.0037857892616 -4.911531247e-8 -6.594431834e-4
                  2.7763716935e-9 4.6881404167e-5 -3.439230169e-8 -1.823421416e-4 -2.21169986e-11 -2.560672537e-5 -7.42679299e-10 5.3019404967e-6
                  1.0375467339e-9 1.5924046267e-5
                  -4.050020577e-8 -1.783210559e-3 9.0535487585e-8 -7.549051459e-3 -4.838505812e-8 0.0093489495424 5.948235267e-10 -3.147955540e-5
                  6.239275645e-10 -1.009531128e-6 2.9362467872e-9 6.6891335598e-5 -4.82336292e-10 -6.337109969e-6 -2.41758656e-10 4.0674991421e-6
                  2.361585009e-10 1.0720750720e-6
                  8.2069746464e-9 0.0037857892616 -4.838505812e-8 0.0093489495424 2.4954786643e-7 -0.011580299378 -2.538896247e-8 -2.033208822e-5
                  3.0372827094e-9 -2.349050417e-6 -2.875882848e-8 -3.924873056e-4 2.868509422e-10 1.8784550086e-5 -1.333327518e-9 -1.254616063e-5
                  -6.90878714e-11 -1.250028910e-5
                  -4.911531247e-8 -6.594431834e-4 5.948235267e-10 -3.147955540e-5 -2.538896247e-8 -2.033208822e-5 2.6685057977e-7 2.1028149763e-4
                  -3.801001587e-8 -1.801108701e-3 2.3551747223e-8 0.0039606039241 -4.875741960e-8 -6.557128655e-4 2.9876679631e-9 4.9058494150e-5
                  -3.529113369e-8 -1.881253667e-4
